
T23C0 000:318 SEGGER J-Link V5.12f Log File (0004ms, 0307ms total)
T23C0 000:318 DLL Compiled: May 17 2016 16:03:35 (0004ms, 0307ms total)
T23C0 000:318 Logging started @ 2016-09-22 13:21 (0004ms, 0307ms total)
T23C0 000:322 JLINK_SetWarnOutHandler(...) (0000ms, 0307ms total)
T23C0 000:322 JLINK_OpenEx(...)
Firmware: J-Link Lite-Cortex-M V8 compiled Aug 20 2015 17:57:19
Hardware: V8.00
S/N: 518001044
Feature(s): GDB  returns O.K. (0270ms, 0577ms total)
T23C0 000:592 JLINK_SetErrorOutHandler(...) (0000ms, 0577ms total)
T23C0 000:592 JLINK_ExecCommand("ProjectFile = "E:\Projects\Sensocheck_BLE\Pub\Fimware 07252016\nRF5_SDK_11.0.0_89a8197\examples\ble_peripheral\ble_app_uart\pca10028\s130\arm5_no_packs\JLinkSettings.ini"", ...)  returns 0x00 (0001ms, 0578ms total)
T23C0 000:598 JLINK_ExecCommand("Device = nRF51422_xxAC", ...)Device "NRF51422_XXAC" selected.  returns 0x00 (0019ms, 0597ms total)
T23C0 000:617 JLINK_ExecCommand("DisableConnectionTimeout", ...)  returns 0x01 (0000ms, 0597ms total)
T23C0 000:617 JLINK_GetHardwareVersion()  returns 0x13880 (0000ms, 0597ms total)
T23C0 000:617 JLINK_GetDLLVersion()  returns 51206 (0000ms, 0597ms total)
T23C0 000:617 JLINK_GetFirmwareString(...) (0000ms, 0597ms total)
T23C0 000:621 JLINK_GetDLLVersion()  returns 51206 (0000ms, 0597ms total)
T23C0 000:621 JLINK_GetCompileDateTime() (0000ms, 0597ms total)
T23C0 000:623 JLINK_GetFirmwareString(...) (0000ms, 0597ms total)
T23C0 000:624 JLINK_GetHardwareVersion()  returns 0x13880 (0000ms, 0597ms total)
T23C0 000:629 JLINK_TIF_Select(JLINKARM_TIF_SWD)  returns 0x00 (0004ms, 0601ms total)
T23C0 000:633 JLINK_SetSpeed(5000) (0001ms, 0602ms total)
T23C0 000:634 JLINK_GetId() >0x108 TIF>Found SWD-DP with ID 0x0BB11477 >0x0D TIF> >0x28 TIF> >0x0D TIF> >0x28 TIF> >0x0D TIF> >0x28 TIF> >0x0D TIF> >0x28 TIF> >0x35 TIF> >0x0D TIF> >0x28 TIF> >0x0D TIF> >0x28 TIF> >0x35 TIF> >0x35 TIF> >0x35 TIF> >0x0D TIF> >0x28 TIF> >0x0D TIF> >0x28 TIF> >0x0D TIF> >0x28 TIF> >0x35 TIF> >0x35 TIF> >0x0D TIF> >0x28 TIF> >0x35 TIF> >0x35 TIF>Found Cortex-M0 r0p0, Little endian. -- CPU_ReadMem(4 bytes @ 0xE000EDF0) -- CPU_ReadMem(4 bytes @ 0xE0002000)
FPUnit: 4 code (BP) slots and 0 literal slots -- CPU_ReadMem(4 bytes @ 0xE000EDFC) -- CPU_ReadMem(4 bytes @ 0xE0001000) -- CPU_WriteMem(4 bytes @ 0xE0001000)CoreSight components:ROMTbl 0 @ F0000000 -- CPU_ReadMem(16 bytes @ 0xF0000000) -- CPU_ReadMem(16 bytes @ 0xE00FFFF0) -- CPU_ReadMem(16 bytes @ 0xE00FFFE0)ROMTbl 0 [0]: F00FF000, CID: B105100D, PID: 000BB471 ROM TableROMTbl 1 @ E00FF000 -- CPU_ReadMem(16 bytes @ 0xE00FF000) -- CPU_ReadMem(16 bytes @ 0xE000EFF0) -- CPU_ReadMem(16 bytes @ 0xE000EFE0)
ROMTbl 1 [0]: FFF0F000, CID: B105E00D, PID: 000BB008 SCS -- CPU_ReadMem(16 bytes @ 0xE0001FF0) -- CPU_ReadMem(16 bytes @ 0xE0001FE0)ROMTbl 1 [1]: FFF02000, CID: B105E00D, PID: 000BB00A DWT -- CPU_ReadMem(16 bytes @ 0xE0002FF0) -- CPU_ReadMem(16 bytes @ 0xE0002FE0)ROMTbl 1 [2]: FFF03000, CID: B105E00D, PID: 000BB00B FPB -- CPU_ReadMem(16 bytes @ 0xF0002FF0) -- CPU_ReadMem(16 bytes @ 0xF0002FE0)ROMTbl 0 [1]: 00002000, CID: 00000000, PID: 00000000 ??? >0x35 TIF>  returns 0x0BB11477 (0069ms, 0671ms total)
T23C0 000:703 JLINK_GetDLLVersion()  returns 51206 (0000ms, 0671ms total)
T23C0 000:703 JLINK_CORE_GetFound()  returns 0x60000FF (0000ms, 0671ms total)
T23C0 000:703 JLINK_GetDebugInfo(0x100) -- Value=0xF0000000  returns 0x00 (0000ms, 0671ms total)
T23C0 000:705 JLINK_ReadMem (0xF0000000, 0x0020 Bytes, ...) -- CPU is running -- CPU_ReadMem(32 bytes @ 0xF0000000) - Data: 03 F0 0F F0 03 20 00 00 00 00 00 00 00 00 00 00 ...  returns 0x00 (0001ms, 0672ms total)
T23C0 000:706 JLINK_ReadMem (0xE00FFFF0, 0x0010 Bytes, ...) -- CPU is running -- CPU_ReadMem(16 bytes @ 0xE00FFFF0) - Data: 0D 00 00 00 10 00 00 00 05 00 00 00 B1 00 00 00  returns 0x00 (0001ms, 0673ms total)
T23C0 000:707 JLINK_ReadMem (0xE00FFFD0, 0x0020 Bytes, ...) -- CPU is running -- CPU_ReadMem(32 bytes @ 0xE00FFFD0) - Data: 04 00 00 00 00 00 00 00 00 00 00 00 00 00 00 00 ...  returns 0x00 (0001ms, 0674ms total)
T23C0 000:708 JLINK_ReadMem (0xE00FF000, 0x0020 Bytes, ...) -- CPU is running -- CPU_ReadMem(32 bytes @ 0xE00FF000) - Data: 03 F0 F0 FF 03 20 F0 FF 03 30 F0 FF 00 00 00 00 ...  returns 0x00 (0001ms, 0675ms total)
T23C0 000:709 JLINK_ReadMem (0xE000EFF0, 0x0010 Bytes, ...) -- CPU is running -- CPU_ReadMem(16 bytes @ 0xE000EFF0) - Data: 0D 00 00 00 E0 00 00 00 05 00 00 00 B1 00 00 00  returns 0x00 (0001ms, 0676ms total)
T23C0 000:710 JLINK_ReadMem (0xE000EFD0, 0x0020 Bytes, ...) -- CPU is running -- CPU_ReadMem(32 bytes @ 0xE000EFD0) - Data: 04 00 00 00 00 00 00 00 00 00 00 00 00 00 00 00 ...  returns 0x00 (0001ms, 0677ms total)
T23C0 000:711 JLINK_ReadMem (0xE0001FF0, 0x0010 Bytes, ...) -- CPU is running -- CPU_ReadMem(16 bytes @ 0xE0001FF0) - Data: 0D 00 00 00 E0 00 00 00 05 00 00 00 B1 00 00 00  returns 0x00 (0001ms, 0678ms total)
T23C0 000:712 JLINK_ReadMem (0xE0001FD0, 0x0020 Bytes, ...) -- CPU is running -- CPU_ReadMem(32 bytes @ 0xE0001FD0) - Data: 04 00 00 00 00 00 00 00 00 00 00 00 00 00 00 00 ...  returns 0x00 (0001ms, 0679ms total)
T23C0 000:713 JLINK_ReadMem (0xE0002FF0, 0x0010 Bytes, ...) -- CPU is running -- CPU_ReadMem(16 bytes @ 0xE0002FF0) - Data: 0D 00 00 00 E0 00 00 00 05 00 00 00 B1 00 00 00  returns 0x00 (0001ms, 0680ms total)
T23C0 000:714 JLINK_ReadMem (0xE0002FD0, 0x0020 Bytes, ...) -- CPU is running -- CPU_ReadMem(32 bytes @ 0xE0002FD0) - Data: 04 00 00 00 00 00 00 00 00 00 00 00 00 00 00 00 ...  returns 0x00 (0001ms, 0681ms total)
T23C0 000:715 JLINK_ReadMem (0xF0002FF0, 0x0010 Bytes, ...) -- CPU is running -- CPU_ReadMem(16 bytes @ 0xF0002FF0) - Data: 00 00 00 00 00 00 00 00 00 00 00 00 00 00 00 00  returns 0x00 (0001ms, 0682ms total)
T23C0 000:716 JLINK_ReadMem (0xF0002FD0, 0x0020 Bytes, ...) -- CPU is running -- CPU_ReadMem(32 bytes @ 0xF0002FD0) - Data: 00 00 00 00 00 00 00 00 00 00 00 00 00 00 00 00 ...  returns 0x00 (0001ms, 0683ms total)
T23C0 000:717 JLINK_ReadMemU32(0xE000ED00, 0x0001 Items, ...) -- CPU is running -- CPU_ReadMem(4 bytes @ 0xE000ED00) - Data: 00 C2 0C 41  returns 0x01 (0001ms, 0684ms total)
T23C0 000:718 JLINK_SetResetType(JLINKARM_RESET_TYPE_NORMAL)  returns JLINKARM_RESET_TYPE_NORMAL (0000ms, 0684ms total)
T23C0 000:718 JLINK_Reset() -- CPU is running -- CPU_WriteMem(4 bytes @ 0xE000EDF0) -- CPU is running -- CPU_WriteMem(4 bytes @ 0xE000EDFC) >0x35 TIF> -- CPU is running -- CPU_WriteMem(4 bytes @ 0xE000ED0C) -- CPU is running -- CPU_ReadMem(4 bytes @ 0xE000EDF0) -- CPU is running -- CPU_ReadMem(4 bytes @ 0xE000EDF0) -- CPU is running -- CPU_WriteMem(4 bytes @ 0xE000EDF0) -- CPU is running -- CPU_WriteMem(4 bytes @ 0xE000EDFC) -- CPU is running -- CPU_ReadMem(4 bytes @ 0xE000EDF0)
 -- CPU_WriteMem(4 bytes @ 0xE0002000) -- CPU_ReadMem(4 bytes @ 0xE000EDFC) -- CPU_ReadMem(4 bytes @ 0xE0001000) -- CPU_WriteMem(4 bytes @ 0xE0001000) (0026ms, 0710ms total)
T23C0 000:744 JLINK_Halt()  returns 0x00 (0000ms, 0710ms total)
T23C0 000:744 JLINK_IsHalted()  returns TRUE (0000ms, 0710ms total)
T23C0 000:744 JLINK_ReadMemU32(0xE000EDF0, 0x0001 Items, ...) -- CPU_ReadMem(4 bytes @ 0xE000EDF0) - Data: 03 00 03 00  returns 0x01 (0001ms, 0711ms total)
T23C0 000:745 JLINK_WriteU32(0xE000EDF0, 0xA05F0003) -- CPU_WriteMem(4 bytes @ 0xE000EDF0)  returns 0x00 (0001ms, 0712ms total)
T23C0 000:746 JLINK_WriteU32(0xE000EDFC, 0x01000000) -- CPU_WriteMem(4 bytes @ 0xE000EDFC)  returns 0x00 (0001ms, 0713ms total)
T23C0 000:752 JLINK_GetHWStatus(...)  returns 0x00 (0001ms, 0714ms total)
T23C0 000:756 JLINK_GetNumBPUnits(Type = 0xFFFFFF00)  returns 0x04 (0001ms, 0715ms total)
T23C0 000:757 JLINK_GetNumBPUnits(Type = 0xF0)  returns 0x2000 (0000ms, 0715ms total)
T23C0 000:757 JLINK_GetNumWPUnits()  returns 0x02 (0000ms, 0715ms total)
T23C0 000:760 JLINK_GetSpeed()  returns 0x7D0 (0000ms, 0715ms total)
T23C0 000:762 JLINK_ReadMemU32(0xE000E004, 0x0001 Items, ...) -- CPU_ReadMem(4 bytes @ 0xE000E004) - Data: 00 00 00 00  returns 0x01 (0001ms, 0716ms total)
T23C0 000:763 JLINK_Halt()  returns 0x00 (0000ms, 0716ms total)
T23C0 000:763 JLINK_IsHalted()  returns TRUE (0000ms, 0716ms total)
T23C0 000:781 JLINK_WriteMem(0x20000000, 0x0478 Bytes, ...) - Data: 00 BE 0A E0 0D 78 2D 06 68 40 08 24 40 00 00 D3 ... -- CPU_WriteMem(1144 bytes @ 0x20000000)  returns 0x478 (0013ms, 0729ms total)
T23C0 000:794 JLINK_WriteReg(R0, 0x00000000)  returns 0x00 (0000ms, 0729ms total)
T23C0 000:794 JLINK_WriteReg(R1, 0x00F42400)  returns 0x00 (0000ms, 0729ms total)
T23C0 000:794 JLINK_WriteReg(R2, 0x00000001)  returns 0x00 (0000ms, 0729ms total)
T23C0 000:794 JLINK_WriteReg(R3, 0x00000000)  returns 0x00 (0000ms, 0729ms total)
T23C0 000:794 JLINK_WriteReg(R4, 0x00000000)  returns 0x00 (0000ms, 0729ms total)
T23C0 000:794 JLINK_WriteReg(R5, 0x00000000)  returns 0x00 (0000ms, 0729ms total)
T23C0 000:794 JLINK_WriteReg(R6, 0x00000000)  returns 0x00 (0000ms, 0729ms total)
T23C0 000:794 JLINK_WriteReg(R7, 0x00000000)  returns 0x00 (0000ms, 0729ms total)
T23C0 000:794 JLINK_WriteReg(R8, 0x00000000)  returns 0x00 (0000ms, 0729ms total)
T23C0 000:794 JLINK_WriteReg(R9, 0x20000474)  returns 0x00 (0000ms, 0729ms total)
T23C0 000:794 JLINK_WriteReg(R10, 0x00000000)  returns 0x00 (0000ms, 0729ms total)
T23C0 000:794 JLINK_WriteReg(R11, 0x00000000)  returns 0x00 (0000ms, 0729ms total)
T23C0 000:794 JLINK_WriteReg(R12, 0x00000000)  returns 0x00 (0000ms, 0729ms total)
T23C0 000:794 JLINK_WriteReg(R13 (SP), 0x20002000)  returns 0x00 (0000ms, 0729ms total)
T23C0 000:794 JLINK_WriteReg(R14, 0x20000001)  returns 0x00 (0000ms, 0729ms total)
T23C0 000:794 JLINK_WriteReg(R15 (PC), 0x20000028)  returns 0x00 (0000ms, 0729ms total)
T23C0 000:794 JLINK_WriteReg(XPSR, 0x01000000)  returns 0x00 (0000ms, 0729ms total)
T23C0 000:794 JLINK_WriteReg(MSP, 0x20002000)  returns 0x00 (0000ms, 0729ms total)
T23C0 000:794 JLINK_WriteReg(PSP, 0x20002000)  returns 0x00 (0000ms, 0729ms total)
T23C0 000:794 JLINK_WriteReg(CFBP, 0x00000000)  returns 0x00 (0000ms, 0729ms total)
T23C0 000:794 JLINK_SetBPEx(Addr = 0x20000000, Type = 0xFFFFFFF2) -- CPU_ReadMem(2 bytes @ 0x20000000)  returns 0x00000001 (0001ms, 0730ms total)
T23C0 000:795 JLINK_Go() -- CPU_WriteMem(2 bytes @ 0x20000000) -- CPU_ReadMem(4 bytes @ 0xE0001000) -- CPU_WriteMem(4 bytes @ 0xE0001000) -- CPU_WriteMem(4 bytes @ 0xE0002008) -- CPU_WriteMem(4 bytes @ 0xE000200C) -- CPU_WriteMem(4 bytes @ 0xE0002010) -- CPU_WriteMem(4 bytes @ 0xE0002014) -- CPU_WriteMem(4 bytes @ 0xE0001004) (0012ms, 0742ms total)
T23C0 000:807 JLINK_IsHalted() -- CPU_ReadMem(2 bytes @ 0x20000000)  returns TRUE (0007ms, 0749ms total)
T23C0 000:814 JLINK_ReadReg(R15 (PC))  returns 0x20000000 (0000ms, 0742ms total)
T23C0 000:814 JLINK_ClrBPEx(BPHandle = 0x00000001)  returns 0x00 (0000ms, 0742ms total)
T23C0 000:814 JLINK_ReadReg(R0)  returns 0x00000000 (0000ms, 0742ms total)
T23C0 000:814 JLINK_WriteReg(R0, 0x0001B000)  returns 0x00 (0000ms, 0742ms total)
T23C0 000:814 JLINK_WriteReg(R1, 0x00000400)  returns 0x00 (0000ms, 0742ms total)
T23C0 000:814 JLINK_WriteReg(R2, 0x000000FF)  returns 0x00 (0000ms, 0742ms total)
T23C0 000:814 JLINK_WriteReg(R3, 0x00000000)  returns 0x00 (0000ms, 0742ms total)
T23C0 000:814 JLINK_WriteReg(R4, 0x00000000)  returns 0x00 (0000ms, 0742ms total)
T23C0 000:814 JLINK_WriteReg(R5, 0x00000000)  returns 0x00 (0000ms, 0742ms total)
T23C0 000:814 JLINK_WriteReg(R6, 0x00000000)  returns 0x00 (0000ms, 0742ms total)
T23C0 000:814 JLINK_WriteReg(R7, 0x00000000)  returns 0x00 (0000ms, 0742ms total)
T23C0 000:814 JLINK_WriteReg(R8, 0x00000000)  returns 0x00 (0000ms, 0742ms total)
T23C0 000:814 JLINK_WriteReg(R9, 0x20000474)  returns 0x00 (0000ms, 0742ms total)
T23C0 000:814 JLINK_WriteReg(R10, 0x00000000)  returns 0x00 (0000ms, 0742ms total)
T23C0 000:814 JLINK_WriteReg(R11, 0x00000000)  returns 0x00 (0000ms, 0742ms total)
T23C0 000:814 JLINK_WriteReg(R12, 0x00000000)  returns 0x00 (0000ms, 0742ms total)
T23C0 000:814 JLINK_WriteReg(R13 (SP), 0x20002000)  returns 0x00 (0000ms, 0742ms total)
T23C0 000:814 JLINK_WriteReg(R14, 0x20000001)  returns 0x00 (0000ms, 0742ms total)
T23C0 000:814 JLINK_WriteReg(R15 (PC), 0x20000188)  returns 0x00 (0000ms, 0742ms total)
T23C0 000:814 JLINK_WriteReg(XPSR, 0x01000000)  returns 0x00 (0000ms, 0742ms total)
T23C0 000:814 JLINK_WriteReg(MSP, 0x20002000)  returns 0x00 (0000ms, 0742ms total)
T23C0 000:814 JLINK_WriteReg(PSP, 0x20002000)  returns 0x00 (0000ms, 0742ms total)
T23C0 000:814 JLINK_WriteReg(CFBP, 0x00000000)  returns 0x00 (0000ms, 0742ms total)
T23C0 000:814 JLINK_SetBPEx(Addr = 0x20000000, Type = 0xFFFFFFF2)  returns 0x00000002 (0000ms, 0742ms total)
T23C0 000:814 JLINK_Go() -- CPU_ReadMem(4 bytes @ 0xE0001000) -- CPU_WriteMem(4 bytes @ 0xE0001000) (0006ms, 0748ms total)
T23C0 000:820 JLINK_IsHalted() -- CPU_ReadMem(2 bytes @ 0x20000000)  returns TRUE (0006ms, 0754ms total)
T23C0 000:826 JLINK_ReadReg(R15 (PC))  returns 0x20000000 (0000ms, 0748ms total)
T23C0 000:826 JLINK_ClrBPEx(BPHandle = 0x00000002)  returns 0x00 (0000ms, 0748ms total)
T23C0 000:826 JLINK_ReadReg(R0)  returns 0x00000001 (0000ms, 0748ms total)
T23C0 000:826 JLINK_WriteReg(R0, 0x0001B000)  returns 0x00 (0000ms, 0748ms total)
T23C0 000:826 JLINK_WriteReg(R1, 0x00000400)  returns 0x00 (0000ms, 0748ms total)
T23C0 000:826 JLINK_WriteReg(R2, 0x000000FF)  returns 0x00 (0000ms, 0748ms total)
T23C0 000:826 JLINK_WriteReg(R3, 0x00000000)  returns 0x00 (0000ms, 0748ms total)
T23C0 000:826 JLINK_WriteReg(R4, 0x00000000)  returns 0x00 (0000ms, 0748ms total)
T23C0 000:826 JLINK_WriteReg(R5, 0x00000000)  returns 0x00 (0000ms, 0748ms total)
T23C0 000:826 JLINK_WriteReg(R6, 0x00000000)  returns 0x00 (0000ms, 0748ms total)
T23C0 000:826 JLINK_WriteReg(R7, 0x00000000)  returns 0x00 (0000ms, 0748ms total)
T23C0 000:826 JLINK_WriteReg(R8, 0x00000000)  returns 0x00 (0000ms, 0748ms total)
T23C0 000:826 JLINK_WriteReg(R9, 0x20000474)  returns 0x00 (0000ms, 0748ms total)
T23C0 000:826 JLINK_WriteReg(R10, 0x00000000)  returns 0x00 (0000ms, 0748ms total)
T23C0 000:826 JLINK_WriteReg(R11, 0x00000000)  returns 0x00 (0000ms, 0748ms total)
T23C0 000:826 JLINK_WriteReg(R12, 0x00000000)  returns 0x00 (0000ms, 0748ms total)
T23C0 000:826 JLINK_WriteReg(R13 (SP), 0x20002000)  returns 0x00 (0000ms, 0748ms total)
T23C0 000:826 JLINK_WriteReg(R14, 0x20000001)  returns 0x00 (0000ms, 0748ms total)
T23C0 000:826 JLINK_WriteReg(R15 (PC), 0x20000104)  returns 0x00 (0000ms, 0748ms total)
T23C0 000:826 JLINK_WriteReg(XPSR, 0x01000000)  returns 0x00 (0000ms, 0748ms total)
T23C0 000:826 JLINK_WriteReg(MSP, 0x20002000)  returns 0x00 (0000ms, 0748ms total)
T23C0 000:826 JLINK_WriteReg(PSP, 0x20002000)  returns 0x00 (0000ms, 0748ms total)
T23C0 000:826 JLINK_WriteReg(CFBP, 0x00000000)  returns 0x00 (0000ms, 0748ms total)
T23C0 000:826 JLINK_SetBPEx(Addr = 0x20000000, Type = 0xFFFFFFF2)  returns 0x00000003 (0000ms, 0748ms total)
T23C0 000:826 JLINK_Go() -- CPU_ReadMem(4 bytes @ 0xE0001000) -- CPU_WriteMem(4 bytes @ 0xE0001000) (0004ms, 0752ms total)
T23C0 000:830 JLINK_IsHalted()  returns FALSE (0001ms, 0753ms total)
T23C0 000:848 JLINK_IsHalted()  returns FALSE (0001ms, 0753ms total)
T23C0 000:850 JLINK_IsHalted()  returns FALSE (0001ms, 0753ms total)
T23C0 000:852 JLINK_IsHalted() -- CPU_ReadMem(2 bytes @ 0x20000000)  returns TRUE (0006ms, 0758ms total)
T23C0 000:858 JLINK_ReadReg(R15 (PC))  returns 0x20000000 (0000ms, 0752ms total)
T23C0 000:858 JLINK_ClrBPEx(BPHandle = 0x00000003)  returns 0x00 (0000ms, 0752ms total)
T23C0 000:858 JLINK_ReadReg(R0)  returns 0x00000000 (0000ms, 0752ms total)
T23C0 000:858 JLINK_WriteReg(R0, 0x0001B400)  returns 0x00 (0000ms, 0752ms total)
T23C0 000:858 JLINK_WriteReg(R1, 0x00000400)  returns 0x00 (0000ms, 0752ms total)
T23C0 000:858 JLINK_WriteReg(R2, 0x000000FF)  returns 0x00 (0000ms, 0752ms total)
T23C0 000:858 JLINK_WriteReg(R3, 0x00000000)  returns 0x00 (0000ms, 0752ms total)
T23C0 000:858 JLINK_WriteReg(R4, 0x00000000)  returns 0x00 (0001ms, 0753ms total)
T23C0 000:859 JLINK_WriteReg(R5, 0x00000000)  returns 0x00 (0000ms, 0753ms total)
T23C0 000:859 JLINK_WriteReg(R6, 0x00000000)  returns 0x00 (0000ms, 0753ms total)
T23C0 000:859 JLINK_WriteReg(R7, 0x00000000)  returns 0x00 (0000ms, 0753ms total)
T23C0 000:859 JLINK_WriteReg(R8, 0x00000000)  returns 0x00 (0000ms, 0753ms total)
T23C0 000:859 JLINK_WriteReg(R9, 0x20000474)  returns 0x00 (0000ms, 0753ms total)
T23C0 000:859 JLINK_WriteReg(R10, 0x00000000)  returns 0x00 (0000ms, 0753ms total)
T23C0 000:859 JLINK_WriteReg(R11, 0x00000000)  returns 0x00 (0000ms, 0753ms total)
T23C0 000:859 JLINK_WriteReg(R12, 0x00000000)  returns 0x00 (0000ms, 0753ms total)
T23C0 000:859 JLINK_WriteReg(R13 (SP), 0x20002000)  returns 0x00 (0000ms, 0753ms total)
T23C0 000:859 JLINK_WriteReg(R14, 0x20000001)  returns 0x00 (0000ms, 0753ms total)
T23C0 000:859 JLINK_WriteReg(R15 (PC), 0x20000188)  returns 0x00 (0000ms, 0753ms total)
T23C0 000:859 JLINK_WriteReg(XPSR, 0x01000000)  returns 0x00 (0000ms, 0753ms total)
T23C0 000:859 JLINK_WriteReg(MSP, 0x20002000)  returns 0x00 (0000ms, 0753ms total)
T23C0 000:859 JLINK_WriteReg(PSP, 0x20002000)  returns 0x00 (0000ms, 0753ms total)
T23C0 000:859 JLINK_WriteReg(CFBP, 0x00000000)  returns 0x00 (0000ms, 0753ms total)
T23C0 000:859 JLINK_SetBPEx(Addr = 0x20000000, Type = 0xFFFFFFF2)  returns 0x00000004 (0000ms, 0753ms total)
T23C0 000:859 JLINK_Go() -- CPU_ReadMem(4 bytes @ 0xE0001000) -- CPU_WriteMem(4 bytes @ 0xE0001000) (0005ms, 0758ms total)
T23C0 000:864 JLINK_IsHalted() -- CPU_ReadMem(2 bytes @ 0x20000000)  returns TRUE (0006ms, 0764ms total)
T23C0 000:870 JLINK_ReadReg(R15 (PC))  returns 0x20000000 (0000ms, 0758ms total)
T23C0 000:870 JLINK_ClrBPEx(BPHandle = 0x00000004)  returns 0x00 (0000ms, 0758ms total)
T23C0 000:870 JLINK_ReadReg(R0)  returns 0x00000001 (0000ms, 0758ms total)
T23C0 000:870 JLINK_WriteReg(R0, 0x0001B400)  returns 0x00 (0000ms, 0758ms total)
T23C0 000:870 JLINK_WriteReg(R1, 0x00000400)  returns 0x00 (0000ms, 0758ms total)
T23C0 000:870 JLINK_WriteReg(R2, 0x000000FF)  returns 0x00 (0000ms, 0758ms total)
T23C0 000:870 JLINK_WriteReg(R3, 0x00000000)  returns 0x00 (0000ms, 0758ms total)
T23C0 000:870 JLINK_WriteReg(R4, 0x00000000)  returns 0x00 (0000ms, 0758ms total)
T23C0 000:870 JLINK_WriteReg(R5, 0x00000000)  returns 0x00 (0000ms, 0758ms total)
T23C0 000:870 JLINK_WriteReg(R6, 0x00000000)  returns 0x00 (0000ms, 0758ms total)
T23C0 000:870 JLINK_WriteReg(R7, 0x00000000)  returns 0x00 (0000ms, 0758ms total)
T23C0 000:870 JLINK_WriteReg(R8, 0x00000000)  returns 0x00 (0000ms, 0758ms total)
T23C0 000:870 JLINK_WriteReg(R9, 0x20000474)  returns 0x00 (0000ms, 0758ms total)
T23C0 000:870 JLINK_WriteReg(R10, 0x00000000)  returns 0x00 (0000ms, 0758ms total)
T23C0 000:870 JLINK_WriteReg(R11, 0x00000000)  returns 0x00 (0000ms, 0758ms total)
T23C0 000:871 JLINK_WriteReg(R12, 0x00000000)  returns 0x00 (0000ms, 0759ms total)
T23C0 000:871 JLINK_WriteReg(R13 (SP), 0x20002000)  returns 0x00 (0000ms, 0759ms total)
T23C0 000:871 JLINK_WriteReg(R14, 0x20000001)  returns 0x00 (0000ms, 0759ms total)
T23C0 000:871 JLINK_WriteReg(R15 (PC), 0x20000104)  returns 0x00 (0000ms, 0759ms total)
T23C0 000:871 JLINK_WriteReg(XPSR, 0x01000000)  returns 0x00 (0000ms, 0759ms total)
T23C0 000:871 JLINK_WriteReg(MSP, 0x20002000)  returns 0x00 (0000ms, 0759ms total)
T23C0 000:871 JLINK_WriteReg(PSP, 0x20002000)  returns 0x00 (0000ms, 0759ms total)
T23C0 000:871 JLINK_WriteReg(CFBP, 0x00000000)  returns 0x00 (0000ms, 0759ms total)
T23C0 000:871 JLINK_SetBPEx(Addr = 0x20000000, Type = 0xFFFFFFF2)  returns 0x00000005 (0000ms, 0759ms total)
T23C0 000:871 JLINK_Go() -- CPU_ReadMem(4 bytes @ 0xE0001000) -- CPU_WriteMem(4 bytes @ 0xE0001000) (0003ms, 0762ms total)
T23C0 000:874 JLINK_IsHalted()  returns FALSE (0001ms, 0763ms total)
T23C0 000:876 JLINK_IsHalted()  returns FALSE (0000ms, 0762ms total)
T23C0 000:877 JLINK_IsHalted()  returns FALSE (0000ms, 0762ms total)
T23C0 000:878 JLINK_IsHalted()  returns FALSE (0000ms, 0762ms total)
T23C0 000:879 JLINK_IsHalted()  returns FALSE (0000ms, 0762ms total)
T23C0 000:880 JLINK_IsHalted()  returns FALSE (0000ms, 0762ms total)
T23C0 000:881 JLINK_IsHalted()  returns FALSE (0000ms, 0762ms total)
T23C0 000:882 JLINK_IsHalted()  returns FALSE (0000ms, 0762ms total)
T23C0 000:883 JLINK_IsHalted()  returns FALSE (0000ms, 0762ms total)
T23C0 000:884 JLINK_IsHalted()  returns FALSE (0000ms, 0762ms total)
T23C0 000:885 JLINK_IsHalted()  returns FALSE (0000ms, 0762ms total)
T23C0 000:886 JLINK_IsHalted()  returns FALSE (0000ms, 0762ms total)
T23C0 000:887 JLINK_IsHalted()  returns FALSE (0000ms, 0762ms total)
T23C0 000:888 JLINK_IsHalted()  returns FALSE (0000ms, 0762ms total)
T23C0 000:889 JLINK_IsHalted()  returns FALSE (0000ms, 0762ms total)
T23C0 000:890 JLINK_IsHalted()  returns FALSE (0000ms, 0762ms total)
T23C0 000:891 JLINK_IsHalted()  returns FALSE (0000ms, 0762ms total)
T23C0 000:892 JLINK_IsHalted()  returns FALSE (0000ms, 0762ms total)
T23C0 000:893 JLINK_IsHalted()  returns FALSE (0000ms, 0762ms total)
T23C0 000:894 JLINK_IsHalted()  returns FALSE (0000ms, 0762ms total)
T23C0 000:895 JLINK_IsHalted()  returns FALSE (0000ms, 0762ms total)
T23C0 000:896 JLINK_IsHalted() -- CPU_ReadMem(2 bytes @ 0x20000000)  returns TRUE (0005ms, 0767ms total)
T23C0 000:901 JLINK_ReadReg(R15 (PC))  returns 0x20000000 (0000ms, 0762ms total)
T23C0 000:901 JLINK_ClrBPEx(BPHandle = 0x00000005)  returns 0x00 (0000ms, 0762ms total)
T23C0 000:901 JLINK_ReadReg(R0)  returns 0x00000000 (0000ms, 0762ms total)
T23C0 000:903 JLINK_WriteReg(R0, 0x0001B800)  returns 0x00 (0000ms, 0763ms total)
T23C0 000:903 JLINK_WriteReg(R1, 0x00000400)  returns 0x00 (0000ms, 0763ms total)
T23C0 000:903 JLINK_WriteReg(R2, 0x000000FF)  returns 0x00 (0000ms, 0763ms total)
T23C0 000:903 JLINK_WriteReg(R3, 0x00000000)  returns 0x00 (0000ms, 0763ms total)
T23C0 000:903 JLINK_WriteReg(R4, 0x00000000)  returns 0x00 (0000ms, 0763ms total)
T23C0 000:903 JLINK_WriteReg(R5, 0x00000000)  returns 0x00 (0000ms, 0763ms total)
T23C0 000:903 JLINK_WriteReg(R6, 0x00000000)  returns 0x00 (0000ms, 0763ms total)
T23C0 000:903 JLINK_WriteReg(R7, 0x00000000)  returns 0x00 (0000ms, 0763ms total)
T23C0 000:903 JLINK_WriteReg(R8, 0x00000000)  returns 0x00 (0000ms, 0763ms total)
T23C0 000:903 JLINK_WriteReg(R9, 0x20000474)  returns 0x00 (0000ms, 0763ms total)
T23C0 000:903 JLINK_WriteReg(R10, 0x00000000)  returns 0x00 (0000ms, 0763ms total)
T23C0 000:903 JLINK_WriteReg(R11, 0x00000000)  returns 0x00 (0000ms, 0763ms total)
T23C0 000:903 JLINK_WriteReg(R12, 0x00000000)  returns 0x00 (0000ms, 0763ms total)
T23C0 000:903 JLINK_WriteReg(R13 (SP), 0x20002000)  returns 0x00 (0000ms, 0763ms total)
T23C0 000:903 JLINK_WriteReg(R14, 0x20000001)  returns 0x00 (0000ms, 0763ms total)
T23C0 000:903 JLINK_WriteReg(R15 (PC), 0x20000188)  returns 0x00 (0000ms, 0763ms total)
T23C0 000:903 JLINK_WriteReg(XPSR, 0x01000000)  returns 0x00 (0000ms, 0763ms total)
T23C0 000:903 JLINK_WriteReg(MSP, 0x20002000)  returns 0x00 (0000ms, 0763ms total)
T23C0 000:903 JLINK_WriteReg(PSP, 0x20002000)  returns 0x00 (0000ms, 0763ms total)
T23C0 000:903 JLINK_WriteReg(CFBP, 0x00000000)  returns 0x00 (0000ms, 0763ms total)
T23C0 000:903 JLINK_SetBPEx(Addr = 0x20000000, Type = 0xFFFFFFF2)  returns 0x00000006 (0000ms, 0763ms total)
T23C0 000:903 JLINK_Go() -- CPU_ReadMem(4 bytes @ 0xE0001000) -- CPU_WriteMem(4 bytes @ 0xE0001000) (0005ms, 0768ms total)
T23C0 000:908 JLINK_IsHalted() -- CPU_ReadMem(2 bytes @ 0x20000000)  returns TRUE (0006ms, 0774ms total)
T23C0 000:914 JLINK_ReadReg(R15 (PC))  returns 0x20000000 (0000ms, 0768ms total)
T23C0 000:914 JLINK_ClrBPEx(BPHandle = 0x00000006)  returns 0x00 (0000ms, 0768ms total)
T23C0 000:914 JLINK_ReadReg(R0)  returns 0x00000001 (0000ms, 0768ms total)
T23C0 000:914 JLINK_WriteReg(R0, 0x0001B800)  returns 0x00 (0000ms, 0768ms total)
T23C0 000:914 JLINK_WriteReg(R1, 0x00000400)  returns 0x00 (0000ms, 0768ms total)
T23C0 000:914 JLINK_WriteReg(R2, 0x000000FF)  returns 0x00 (0000ms, 0768ms total)
T23C0 000:914 JLINK_WriteReg(R3, 0x00000000)  returns 0x00 (0000ms, 0768ms total)
T23C0 000:914 JLINK_WriteReg(R4, 0x00000000)  returns 0x00 (0000ms, 0768ms total)
T23C0 000:914 JLINK_WriteReg(R5, 0x00000000)  returns 0x00 (0000ms, 0768ms total)
T23C0 000:914 JLINK_WriteReg(R6, 0x00000000)  returns 0x00 (0000ms, 0768ms total)
T23C0 000:914 JLINK_WriteReg(R7, 0x00000000)  returns 0x00 (0000ms, 0768ms total)
T23C0 000:914 JLINK_WriteReg(R8, 0x00000000)  returns 0x00 (0000ms, 0768ms total)
T23C0 000:914 JLINK_WriteReg(R9, 0x20000474)  returns 0x00 (0000ms, 0768ms total)
T23C0 000:914 JLINK_WriteReg(R10, 0x00000000)  returns 0x00 (0000ms, 0768ms total)
T23C0 000:914 JLINK_WriteReg(R11, 0x00000000)  returns 0x00 (0000ms, 0768ms total)
T23C0 000:914 JLINK_WriteReg(R12, 0x00000000)  returns 0x00 (0000ms, 0768ms total)
T23C0 000:914 JLINK_WriteReg(R13 (SP), 0x20002000)  returns 0x00 (0000ms, 0768ms total)
T23C0 000:914 JLINK_WriteReg(R14, 0x20000001)  returns 0x00 (0000ms, 0768ms total)
T23C0 000:914 JLINK_WriteReg(R15 (PC), 0x20000104)  returns 0x00 (0000ms, 0768ms total)
T23C0 000:914 JLINK_WriteReg(XPSR, 0x01000000)  returns 0x00 (0000ms, 0768ms total)
T23C0 000:914 JLINK_WriteReg(MSP, 0x20002000)  returns 0x00 (0000ms, 0768ms total)
T23C0 000:914 JLINK_WriteReg(PSP, 0x20002000)  returns 0x00 (0000ms, 0768ms total)
T23C0 000:914 JLINK_WriteReg(CFBP, 0x00000000)  returns 0x00 (0000ms, 0768ms total)
T23C0 000:914 JLINK_SetBPEx(Addr = 0x20000000, Type = 0xFFFFFFF2)  returns 0x00000007 (0000ms, 0768ms total)
T23C0 000:914 JLINK_Go() -- CPU_ReadMem(4 bytes @ 0xE0001000) -- CPU_WriteMem(4 bytes @ 0xE0001000) (0004ms, 0772ms total)
T23C0 000:918 JLINK_IsHalted()  returns FALSE (0001ms, 0773ms total)
T23C0 000:924 JLINK_IsHalted()  returns FALSE (0001ms, 0773ms total)
T23C0 000:926 JLINK_IsHalted()  returns FALSE (0001ms, 0773ms total)
T23C0 000:928 JLINK_IsHalted()  returns FALSE (0001ms, 0773ms total)
T23C0 000:930 JLINK_IsHalted()  returns FALSE (0001ms, 0773ms total)
T23C0 000:932 JLINK_IsHalted()  returns FALSE (0001ms, 0773ms total)
T23C0 000:934 JLINK_IsHalted()  returns FALSE (0001ms, 0773ms total)
T23C0 000:936 JLINK_IsHalted()  returns FALSE (0001ms, 0773ms total)
T23C0 000:938 JLINK_IsHalted()  returns FALSE (0001ms, 0773ms total)
T23C0 000:940 JLINK_IsHalted() -- CPU_ReadMem(2 bytes @ 0x20000000)  returns TRUE (0006ms, 0778ms total)
T23C0 000:946 JLINK_ReadReg(R15 (PC))  returns 0x20000000 (0000ms, 0772ms total)
T23C0 000:946 JLINK_ClrBPEx(BPHandle = 0x00000007)  returns 0x00 (0000ms, 0772ms total)
T23C0 000:946 JLINK_ReadReg(R0)  returns 0x00000000 (0000ms, 0772ms total)
T23C0 000:946 JLINK_WriteReg(R0, 0x0001BC00)  returns 0x00 (0001ms, 0773ms total)
T23C0 000:947 JLINK_WriteReg(R1, 0x00000400)  returns 0x00 (0000ms, 0773ms total)
T23C0 000:947 JLINK_WriteReg(R2, 0x000000FF)  returns 0x00 (0000ms, 0773ms total)
T23C0 000:947 JLINK_WriteReg(R3, 0x00000000)  returns 0x00 (0000ms, 0773ms total)
T23C0 000:947 JLINK_WriteReg(R4, 0x00000000)  returns 0x00 (0000ms, 0773ms total)
T23C0 000:947 JLINK_WriteReg(R5, 0x00000000)  returns 0x00 (0000ms, 0773ms total)
T23C0 000:947 JLINK_WriteReg(R6, 0x00000000)  returns 0x00 (0000ms, 0773ms total)
T23C0 000:947 JLINK_WriteReg(R7, 0x00000000)  returns 0x00 (0000ms, 0773ms total)
T23C0 000:947 JLINK_WriteReg(R8, 0x00000000)  returns 0x00 (0000ms, 0773ms total)
T23C0 000:947 JLINK_WriteReg(R9, 0x20000474)  returns 0x00 (0000ms, 0773ms total)
T23C0 000:947 JLINK_WriteReg(R10, 0x00000000)  returns 0x00 (0000ms, 0773ms total)
T23C0 000:947 JLINK_WriteReg(R11, 0x00000000)  returns 0x00 (0000ms, 0773ms total)
T23C0 000:947 JLINK_WriteReg(R12, 0x00000000)  returns 0x00 (0000ms, 0773ms total)
T23C0 000:947 JLINK_WriteReg(R13 (SP), 0x20002000)  returns 0x00 (0000ms, 0773ms total)
T23C0 000:947 JLINK_WriteReg(R14, 0x20000001)  returns 0x00 (0000ms, 0773ms total)
T23C0 000:947 JLINK_WriteReg(R15 (PC), 0x20000188)  returns 0x00 (0000ms, 0773ms total)
T23C0 000:947 JLINK_WriteReg(XPSR, 0x01000000)  returns 0x00 (0000ms, 0773ms total)
T23C0 000:947 JLINK_WriteReg(MSP, 0x20002000)  returns 0x00 (0000ms, 0773ms total)
T23C0 000:947 JLINK_WriteReg(PSP, 0x20002000)  returns 0x00 (0000ms, 0773ms total)
T23C0 000:947 JLINK_WriteReg(CFBP, 0x00000000)  returns 0x00 (0000ms, 0773ms total)
T23C0 000:947 JLINK_SetBPEx(Addr = 0x20000000, Type = 0xFFFFFFF2)  returns 0x00000008 (0000ms, 0773ms total)
T23C0 000:947 JLINK_Go() -- CPU_ReadMem(4 bytes @ 0xE0001000) -- CPU_WriteMem(4 bytes @ 0xE0001000) (0005ms, 0778ms total)
T23C0 000:952 JLINK_IsHalted() -- CPU_ReadMem(2 bytes @ 0x20000000)  returns TRUE (0006ms, 0784ms total)
T23C0 000:958 JLINK_ReadReg(R15 (PC))  returns 0x20000000 (0000ms, 0778ms total)
T23C0 000:958 JLINK_ClrBPEx(BPHandle = 0x00000008)  returns 0x00 (0000ms, 0778ms total)
T23C0 000:958 JLINK_ReadReg(R0)  returns 0x00000001 (0000ms, 0778ms total)
T23C0 000:958 JLINK_WriteReg(R0, 0x0001BC00)  returns 0x00 (0000ms, 0778ms total)
T23C0 000:958 JLINK_WriteReg(R1, 0x00000400)  returns 0x00 (0000ms, 0778ms total)
T23C0 000:958 JLINK_WriteReg(R2, 0x000000FF)  returns 0x00 (0000ms, 0778ms total)
T23C0 000:958 JLINK_WriteReg(R3, 0x00000000)  returns 0x00 (0000ms, 0778ms total)
T23C0 000:958 JLINK_WriteReg(R4, 0x00000000)  returns 0x00 (0000ms, 0778ms total)
T23C0 000:958 JLINK_WriteReg(R5, 0x00000000)  returns 0x00 (0000ms, 0778ms total)
T23C0 000:958 JLINK_WriteReg(R6, 0x00000000)  returns 0x00 (0000ms, 0778ms total)
T23C0 000:958 JLINK_WriteReg(R7, 0x00000000)  returns 0x00 (0000ms, 0778ms total)
T23C0 000:958 JLINK_WriteReg(R8, 0x00000000)  returns 0x00 (0000ms, 0778ms total)
T23C0 000:958 JLINK_WriteReg(R9, 0x20000474)  returns 0x00 (0000ms, 0778ms total)
T23C0 000:958 JLINK_WriteReg(R10, 0x00000000)  returns 0x00 (0000ms, 0778ms total)
T23C0 000:958 JLINK_WriteReg(R11, 0x00000000)  returns 0x00 (0000ms, 0778ms total)
T23C0 000:958 JLINK_WriteReg(R12, 0x00000000)  returns 0x00 (0000ms, 0778ms total)
T23C0 000:958 JLINK_WriteReg(R13 (SP), 0x20002000)  returns 0x00 (0000ms, 0778ms total)
T23C0 000:958 JLINK_WriteReg(R14, 0x20000001)  returns 0x00 (0000ms, 0778ms total)
T23C0 000:958 JLINK_WriteReg(R15 (PC), 0x20000104)  returns 0x00 (0000ms, 0778ms total)
T23C0 000:958 JLINK_WriteReg(XPSR, 0x01000000)  returns 0x00 (0000ms, 0778ms total)
T23C0 000:958 JLINK_WriteReg(MSP, 0x20002000)  returns 0x00 (0000ms, 0778ms total)
T23C0 000:958 JLINK_WriteReg(PSP, 0x20002000)  returns 0x00 (0000ms, 0778ms total)
T23C0 000:958 JLINK_WriteReg(CFBP, 0x00000000)  returns 0x00 (0001ms, 0779ms total)
T23C0 000:959 JLINK_SetBPEx(Addr = 0x20000000, Type = 0xFFFFFFF2)  returns 0x00000009 (0000ms, 0779ms total)
T23C0 000:959 JLINK_Go() -- CPU_ReadMem(4 bytes @ 0xE0001000) -- CPU_WriteMem(4 bytes @ 0xE0001000) (0003ms, 0782ms total)
T23C0 000:962 JLINK_IsHalted()  returns FALSE (0001ms, 0783ms total)
T23C0 000:964 JLINK_IsHalted()  returns FALSE (0000ms, 0782ms total)
T23C0 000:965 JLINK_IsHalted()  returns FALSE (0000ms, 0782ms total)
T23C0 000:966 JLINK_IsHalted()  returns FALSE (0000ms, 0782ms total)
T23C0 000:967 JLINK_IsHalted()  returns FALSE (0000ms, 0782ms total)
T23C0 000:968 JLINK_IsHalted()  returns FALSE (0000ms, 0782ms total)
T23C0 000:969 JLINK_IsHalted()  returns FALSE (0000ms, 0782ms total)
T23C0 000:970 JLINK_IsHalted()  returns FALSE (0000ms, 0782ms total)
T23C0 000:971 JLINK_IsHalted()  returns FALSE (0000ms, 0782ms total)
T23C0 000:972 JLINK_IsHalted()  returns FALSE (0000ms, 0782ms total)
T23C0 000:973 JLINK_IsHalted()  returns FALSE (0000ms, 0782ms total)
T23C0 000:974 JLINK_IsHalted()  returns FALSE (0000ms, 0782ms total)
T23C0 000:975 JLINK_IsHalted()  returns FALSE (0000ms, 0782ms total)
T23C0 000:976 JLINK_IsHalted()  returns FALSE (0000ms, 0782ms total)
T23C0 000:977 JLINK_IsHalted()  returns FALSE (0000ms, 0782ms total)
T23C0 000:978 JLINK_IsHalted()  returns FALSE (0000ms, 0782ms total)
T23C0 000:979 JLINK_IsHalted()  returns FALSE (0000ms, 0782ms total)
T23C0 000:980 JLINK_IsHalted()  returns FALSE (0000ms, 0782ms total)
T23C0 000:981 JLINK_IsHalted()  returns FALSE (0000ms, 0782ms total)
T23C0 000:982 JLINK_IsHalted()  returns FALSE (0000ms, 0782ms total)
T23C0 000:983 JLINK_IsHalted()  returns FALSE (0000ms, 0782ms total)
T23C0 000:984 JLINK_IsHalted() -- CPU_ReadMem(2 bytes @ 0x20000000)  returns TRUE (0005ms, 0787ms total)
T23C0 000:989 JLINK_ReadReg(R15 (PC))  returns 0x20000000 (0000ms, 0782ms total)
T23C0 000:989 JLINK_ClrBPEx(BPHandle = 0x00000009)  returns 0x00 (0000ms, 0782ms total)
T23C0 000:989 JLINK_ReadReg(R0)  returns 0x00000000 (0002ms, 0784ms total)
T23C0 000:991 JLINK_WriteReg(R0, 0x0001C000)  returns 0x00 (0000ms, 0784ms total)
T23C0 000:991 JLINK_WriteReg(R1, 0x00000400)  returns 0x00 (0000ms, 0784ms total)
T23C0 000:991 JLINK_WriteReg(R2, 0x000000FF)  returns 0x00 (0000ms, 0784ms total)
T23C0 000:991 JLINK_WriteReg(R3, 0x00000000)  returns 0x00 (0000ms, 0784ms total)
T23C0 000:991 JLINK_WriteReg(R4, 0x00000000)  returns 0x00 (0000ms, 0784ms total)
T23C0 000:991 JLINK_WriteReg(R5, 0x00000000)  returns 0x00 (0000ms, 0784ms total)
T23C0 000:991 JLINK_WriteReg(R6, 0x00000000)  returns 0x00 (0000ms, 0784ms total)
T23C0 000:991 JLINK_WriteReg(R7, 0x00000000)  returns 0x00 (0000ms, 0784ms total)
T23C0 000:991 JLINK_WriteReg(R8, 0x00000000)  returns 0x00 (0000ms, 0784ms total)
T23C0 000:991 JLINK_WriteReg(R9, 0x20000474)  returns 0x00 (0000ms, 0784ms total)
T23C0 000:991 JLINK_WriteReg(R10, 0x00000000)  returns 0x00 (0000ms, 0784ms total)
T23C0 000:992 JLINK_WriteReg(R11, 0x00000000)  returns 0x00 (0000ms, 0784ms total)
T23C0 000:992 JLINK_WriteReg(R12, 0x00000000)  returns 0x00 (0000ms, 0784ms total)
T23C0 000:992 JLINK_WriteReg(R13 (SP), 0x20002000)  returns 0x00 (0000ms, 0784ms total)
T23C0 000:992 JLINK_WriteReg(R14, 0x20000001)  returns 0x00 (0000ms, 0784ms total)
T23C0 000:992 JLINK_WriteReg(R15 (PC), 0x20000188)  returns 0x00 (0000ms, 0784ms total)
T23C0 000:992 JLINK_WriteReg(XPSR, 0x01000000)  returns 0x00 (0000ms, 0784ms total)
T23C0 000:992 JLINK_WriteReg(MSP, 0x20002000)  returns 0x00 (0000ms, 0784ms total)
T23C0 000:992 JLINK_WriteReg(PSP, 0x20002000)  returns 0x00 (0000ms, 0784ms total)
T23C0 000:992 JLINK_WriteReg(CFBP, 0x00000000)  returns 0x00 (0000ms, 0784ms total)
T23C0 000:992 JLINK_SetBPEx(Addr = 0x20000000, Type = 0xFFFFFFF2)  returns 0x0000000A (0000ms, 0784ms total)
T23C0 000:992 JLINK_Go() -- CPU_ReadMem(4 bytes @ 0xE0001000) -- CPU_WriteMem(4 bytes @ 0xE0001000) (0005ms, 0789ms total)
T23C0 000:997 JLINK_IsHalted() -- CPU_ReadMem(2 bytes @ 0x20000000)  returns TRUE (0006ms, 0795ms total)
T23C0 001:003 JLINK_ReadReg(R15 (PC))  returns 0x20000000 (0000ms, 0789ms total)
T23C0 001:003 JLINK_ClrBPEx(BPHandle = 0x0000000A)  returns 0x00 (0000ms, 0789ms total)
T23C0 001:003 JLINK_ReadReg(R0)  returns 0x00000001 (0000ms, 0789ms total)
T23C0 001:003 JLINK_WriteReg(R0, 0x0001C000)  returns 0x00 (0000ms, 0789ms total)
T23C0 001:003 JLINK_WriteReg(R1, 0x00000400)  returns 0x00 (0000ms, 0789ms total)
T23C0 001:003 JLINK_WriteReg(R2, 0x000000FF)  returns 0x00 (0000ms, 0789ms total)
T23C0 001:003 JLINK_WriteReg(R3, 0x00000000)  returns 0x00 (0000ms, 0789ms total)
T23C0 001:003 JLINK_WriteReg(R4, 0x00000000)  returns 0x00 (0000ms, 0789ms total)
T23C0 001:003 JLINK_WriteReg(R5, 0x00000000)  returns 0x00 (0000ms, 0789ms total)
T23C0 001:003 JLINK_WriteReg(R6, 0x00000000)  returns 0x00 (0000ms, 0789ms total)
T23C0 001:003 JLINK_WriteReg(R7, 0x00000000)  returns 0x00 (0000ms, 0789ms total)
T23C0 001:003 JLINK_WriteReg(R8, 0x00000000)  returns 0x00 (0000ms, 0789ms total)
T23C0 001:003 JLINK_WriteReg(R9, 0x20000474)  returns 0x00 (0000ms, 0789ms total)
T23C0 001:003 JLINK_WriteReg(R10, 0x00000000)  returns 0x00 (0000ms, 0789ms total)
T23C0 001:003 JLINK_WriteReg(R11, 0x00000000)  returns 0x00 (0000ms, 0789ms total)
T23C0 001:003 JLINK_WriteReg(R12, 0x00000000)  returns 0x00 (0000ms, 0789ms total)
T23C0 001:003 JLINK_WriteReg(R13 (SP), 0x20002000)  returns 0x00 (0000ms, 0789ms total)
T23C0 001:003 JLINK_WriteReg(R14, 0x20000001)  returns 0x00 (0000ms, 0789ms total)
T23C0 001:003 JLINK_WriteReg(R15 (PC), 0x20000104)  returns 0x00 (0000ms, 0789ms total)
T23C0 001:003 JLINK_WriteReg(XPSR, 0x01000000)  returns 0x00 (0000ms, 0789ms total)
T23C0 001:003 JLINK_WriteReg(MSP, 0x20002000)  returns 0x00 (0000ms, 0789ms total)
T23C0 001:003 JLINK_WriteReg(PSP, 0x20002000)  returns 0x00 (0000ms, 0789ms total)
T23C0 001:003 JLINK_WriteReg(CFBP, 0x00000000)  returns 0x00 (0000ms, 0789ms total)
T23C0 001:003 JLINK_SetBPEx(Addr = 0x20000000, Type = 0xFFFFFFF2)  returns 0x0000000B (0000ms, 0789ms total)
T23C0 001:003 JLINK_Go() -- CPU_ReadMem(4 bytes @ 0xE0001000) -- CPU_WriteMem(4 bytes @ 0xE0001000) (0004ms, 0793ms total)
T23C0 001:007 JLINK_IsHalted()  returns FALSE (0001ms, 0794ms total)
T23C0 001:009 JLINK_IsHalted()  returns FALSE (0001ms, 0794ms total)
T23C0 001:011 JLINK_IsHalted()  returns FALSE (0001ms, 0794ms total)
T23C0 001:017 JLINK_IsHalted()  returns FALSE (0001ms, 0794ms total)
T23C0 001:019 JLINK_IsHalted()  returns FALSE (0001ms, 0794ms total)
T23C0 001:021 JLINK_IsHalted()  returns FALSE (0001ms, 0794ms total)
T23C0 001:023 JLINK_IsHalted()  returns FALSE (0001ms, 0794ms total)
T23C0 001:025 JLINK_IsHalted()  returns FALSE (0001ms, 0794ms total)
T23C0 001:028 JLINK_IsHalted() -- CPU_ReadMem(2 bytes @ 0x20000000)  returns TRUE (0006ms, 0799ms total)
T23C0 001:034 JLINK_ReadReg(R15 (PC))  returns 0x20000000 (0000ms, 0793ms total)
T23C0 001:034 JLINK_ClrBPEx(BPHandle = 0x0000000B)  returns 0x00 (0000ms, 0793ms total)
T23C0 001:034 JLINK_ReadReg(R0)  returns 0x00000000 (0000ms, 0793ms total)
T23C0 001:034 JLINK_WriteReg(R0, 0x0001C400)  returns 0x00 (0000ms, 0793ms total)
T23C0 001:034 JLINK_WriteReg(R1, 0x00000400)  returns 0x00 (0000ms, 0793ms total)
T23C0 001:034 JLINK_WriteReg(R2, 0x000000FF)  returns 0x00 (0000ms, 0793ms total)
T23C0 001:034 JLINK_WriteReg(R3, 0x00000000)  returns 0x00 (0000ms, 0793ms total)
T23C0 001:034 JLINK_WriteReg(R4, 0x00000000)  returns 0x00 (0000ms, 0793ms total)
T23C0 001:034 JLINK_WriteReg(R5, 0x00000000)  returns 0x00 (0000ms, 0793ms total)
T23C0 001:034 JLINK_WriteReg(R6, 0x00000000)  returns 0x00 (0000ms, 0793ms total)
T23C0 001:034 JLINK_WriteReg(R7, 0x00000000)  returns 0x00 (0000ms, 0793ms total)
T23C0 001:034 JLINK_WriteReg(R8, 0x00000000)  returns 0x00 (0000ms, 0793ms total)
T23C0 001:034 JLINK_WriteReg(R9, 0x20000474)  returns 0x00 (0000ms, 0793ms total)
T23C0 001:034 JLINK_WriteReg(R10, 0x00000000)  returns 0x00 (0000ms, 0793ms total)
T23C0 001:034 JLINK_WriteReg(R11, 0x00000000)  returns 0x00 (0000ms, 0793ms total)
T23C0 001:034 JLINK_WriteReg(R12, 0x00000000)  returns 0x00 (0000ms, 0793ms total)
T23C0 001:034 JLINK_WriteReg(R13 (SP), 0x20002000)  returns 0x00 (0000ms, 0793ms total)
T23C0 001:034 JLINK_WriteReg(R14, 0x20000001)  returns 0x00 (0000ms, 0793ms total)
T23C0 001:034 JLINK_WriteReg(R15 (PC), 0x20000188)  returns 0x00 (0000ms, 0793ms total)
T23C0 001:034 JLINK_WriteReg(XPSR, 0x01000000)  returns 0x00 (0000ms, 0793ms total)
T23C0 001:034 JLINK_WriteReg(MSP, 0x20002000)  returns 0x00 (0000ms, 0793ms total)
T23C0 001:034 JLINK_WriteReg(PSP, 0x20002000)  returns 0x00 (0000ms, 0793ms total)
T23C0 001:034 JLINK_WriteReg(CFBP, 0x00000000)  returns 0x00 (0000ms, 0793ms total)
T23C0 001:034 JLINK_SetBPEx(Addr = 0x20000000, Type = 0xFFFFFFF2)  returns 0x0000000C (0001ms, 0794ms total)
T23C0 001:035 JLINK_Go() -- CPU_ReadMem(4 bytes @ 0xE0001000) -- CPU_WriteMem(4 bytes @ 0xE0001000) (0005ms, 0799ms total)
T23C0 001:040 JLINK_IsHalted() -- CPU_ReadMem(2 bytes @ 0x20000000)  returns TRUE (0006ms, 0805ms total)
T23C0 001:046 JLINK_ReadReg(R15 (PC))  returns 0x20000000 (0000ms, 0799ms total)
T23C0 001:046 JLINK_ClrBPEx(BPHandle = 0x0000000C)  returns 0x00 (0000ms, 0799ms total)
T23C0 001:046 JLINK_ReadReg(R0)  returns 0x00000001 (0000ms, 0799ms total)
T23C0 001:046 JLINK_WriteReg(R0, 0x0001C400)  returns 0x00 (0000ms, 0799ms total)
T23C0 001:046 JLINK_WriteReg(R1, 0x00000400)  returns 0x00 (0000ms, 0799ms total)
T23C0 001:046 JLINK_WriteReg(R2, 0x000000FF)  returns 0x00 (0000ms, 0799ms total)
T23C0 001:046 JLINK_WriteReg(R3, 0x00000000)  returns 0x00 (0000ms, 0799ms total)
T23C0 001:046 JLINK_WriteReg(R4, 0x00000000)  returns 0x00 (0000ms, 0799ms total)
T23C0 001:046 JLINK_WriteReg(R5, 0x00000000)  returns 0x00 (0000ms, 0799ms total)
T23C0 001:046 JLINK_WriteReg(R6, 0x00000000)  returns 0x00 (0000ms, 0799ms total)
T23C0 001:046 JLINK_WriteReg(R7, 0x00000000)  returns 0x00 (0000ms, 0799ms total)
T23C0 001:046 JLINK_WriteReg(R8, 0x00000000)  returns 0x00 (0000ms, 0799ms total)
T23C0 001:046 JLINK_WriteReg(R9, 0x20000474)  returns 0x00 (0000ms, 0799ms total)
T23C0 001:046 JLINK_WriteReg(R10, 0x00000000)  returns 0x00 (0000ms, 0799ms total)
T23C0 001:046 JLINK_WriteReg(R11, 0x00000000)  returns 0x00 (0000ms, 0799ms total)
T23C0 001:046 JLINK_WriteReg(R12, 0x00000000)  returns 0x00 (0000ms, 0799ms total)
T23C0 001:046 JLINK_WriteReg(R13 (SP), 0x20002000)  returns 0x00 (0000ms, 0799ms total)
T23C0 001:046 JLINK_WriteReg(R14, 0x20000001)  returns 0x00 (0000ms, 0799ms total)
T23C0 001:046 JLINK_WriteReg(R15 (PC), 0x20000104)  returns 0x00 (0000ms, 0799ms total)
T23C0 001:046 JLINK_WriteReg(XPSR, 0x01000000)  returns 0x00 (0000ms, 0799ms total)
T23C0 001:046 JLINK_WriteReg(MSP, 0x20002000)  returns 0x00 (0000ms, 0799ms total)
T23C0 001:046 JLINK_WriteReg(PSP, 0x20002000)  returns 0x00 (0000ms, 0799ms total)
T23C0 001:046 JLINK_WriteReg(CFBP, 0x00000000)  returns 0x00 (0000ms, 0799ms total)
T23C0 001:046 JLINK_SetBPEx(Addr = 0x20000000, Type = 0xFFFFFFF2)  returns 0x0000000D (0000ms, 0799ms total)
T23C0 001:046 JLINK_Go() -- CPU_ReadMem(4 bytes @ 0xE0001000) -- CPU_WriteMem(4 bytes @ 0xE0001000) (0004ms, 0803ms total)
T23C0 001:050 JLINK_IsHalted()  returns FALSE (0001ms, 0804ms total)
T23C0 001:052 JLINK_IsHalted()  returns FALSE (0000ms, 0803ms total)
T23C0 001:053 JLINK_IsHalted()  returns FALSE (0000ms, 0803ms total)
T23C0 001:054 JLINK_IsHalted()  returns FALSE (0000ms, 0803ms total)
T23C0 001:055 JLINK_IsHalted()  returns FALSE (0000ms, 0803ms total)
T23C0 001:056 JLINK_IsHalted()  returns FALSE (0000ms, 0803ms total)
T23C0 001:057 JLINK_IsHalted()  returns FALSE (0000ms, 0803ms total)
T23C0 001:058 JLINK_IsHalted()  returns FALSE (0000ms, 0803ms total)
T23C0 001:059 JLINK_IsHalted()  returns FALSE (0000ms, 0803ms total)
T23C0 001:060 JLINK_IsHalted()  returns FALSE (0000ms, 0803ms total)
T23C0 001:061 JLINK_IsHalted()  returns FALSE (0000ms, 0803ms total)
T23C0 001:062 JLINK_IsHalted()  returns FALSE (0000ms, 0803ms total)
T23C0 001:063 JLINK_IsHalted()  returns FALSE (0000ms, 0803ms total)
T23C0 001:064 JLINK_IsHalted()  returns FALSE (0000ms, 0803ms total)
T23C0 001:065 JLINK_IsHalted()  returns FALSE (0000ms, 0803ms total)
T23C0 001:066 JLINK_IsHalted()  returns FALSE (0000ms, 0803ms total)
T23C0 001:067 JLINK_IsHalted()  returns FALSE (0000ms, 0803ms total)
T23C0 001:068 JLINK_IsHalted()  returns FALSE (0000ms, 0803ms total)
T23C0 001:069 JLINK_IsHalted()  returns FALSE (0000ms, 0803ms total)
T23C0 001:070 JLINK_IsHalted()  returns FALSE (0000ms, 0803ms total)
T23C0 001:071 JLINK_IsHalted() -- CPU_ReadMem(2 bytes @ 0x20000000)  returns TRUE (0005ms, 0808ms total)
T23C0 001:076 JLINK_ReadReg(R15 (PC))  returns 0x20000000 (0000ms, 0803ms total)
T23C0 001:076 JLINK_ClrBPEx(BPHandle = 0x0000000D)  returns 0x00 (0000ms, 0803ms total)
T23C0 001:076 JLINK_ReadReg(R0)  returns 0x00000000 (0000ms, 0803ms total)
T23C0 001:077 JLINK_WriteReg(R0, 0x0001C800)  returns 0x00 (0000ms, 0803ms total)
T23C0 001:077 JLINK_WriteReg(R1, 0x00000400)  returns 0x00 (0000ms, 0803ms total)
T23C0 001:077 JLINK_WriteReg(R2, 0x000000FF)  returns 0x00 (0000ms, 0803ms total)
T23C0 001:077 JLINK_WriteReg(R3, 0x00000000)  returns 0x00 (0000ms, 0803ms total)
T23C0 001:077 JLINK_WriteReg(R4, 0x00000000)  returns 0x00 (0000ms, 0803ms total)
T23C0 001:077 JLINK_WriteReg(R5, 0x00000000)  returns 0x00 (0000ms, 0803ms total)
T23C0 001:077 JLINK_WriteReg(R6, 0x00000000)  returns 0x00 (0000ms, 0803ms total)
T23C0 001:077 JLINK_WriteReg(R7, 0x00000000)  returns 0x00 (0000ms, 0803ms total)
T23C0 001:077 JLINK_WriteReg(R8, 0x00000000)  returns 0x00 (0000ms, 0803ms total)
T23C0 001:077 JLINK_WriteReg(R9, 0x20000474)  returns 0x00 (0000ms, 0803ms total)
T23C0 001:077 JLINK_WriteReg(R10, 0x00000000)  returns 0x00 (0000ms, 0803ms total)
T23C0 001:077 JLINK_WriteReg(R11, 0x00000000)  returns 0x00 (0000ms, 0803ms total)
T23C0 001:077 JLINK_WriteReg(R12, 0x00000000)  returns 0x00 (0000ms, 0803ms total)
T23C0 001:077 JLINK_WriteReg(R13 (SP), 0x20002000)  returns 0x00 (0000ms, 0803ms total)
T23C0 001:077 JLINK_WriteReg(R14, 0x20000001)  returns 0x00 (0000ms, 0803ms total)
T23C0 001:077 JLINK_WriteReg(R15 (PC), 0x20000188)  returns 0x00 (0000ms, 0803ms total)
T23C0 001:077 JLINK_WriteReg(XPSR, 0x01000000)  returns 0x00 (0000ms, 0803ms total)
T23C0 001:077 JLINK_WriteReg(MSP, 0x20002000)  returns 0x00 (0000ms, 0803ms total)
T23C0 001:077 JLINK_WriteReg(PSP, 0x20002000)  returns 0x00 (0000ms, 0803ms total)
T23C0 001:077 JLINK_WriteReg(CFBP, 0x00000000)  returns 0x00 (0000ms, 0803ms total)
T23C0 001:077 JLINK_SetBPEx(Addr = 0x20000000, Type = 0xFFFFFFF2)  returns 0x0000000E (0000ms, 0803ms total)
T23C0 001:077 JLINK_Go() -- CPU_ReadMem(4 bytes @ 0xE0001000) -- CPU_WriteMem(4 bytes @ 0xE0001000) (0005ms, 0808ms total)
T23C0 001:082 JLINK_IsHalted() -- CPU_ReadMem(2 bytes @ 0x20000000)  returns TRUE (0007ms, 0815ms total)
T23C0 001:089 JLINK_ReadReg(R15 (PC))  returns 0x20000000 (0000ms, 0808ms total)
T23C0 001:089 JLINK_ClrBPEx(BPHandle = 0x0000000E)  returns 0x00 (0000ms, 0808ms total)
T23C0 001:089 JLINK_ReadReg(R0)  returns 0x00000001 (0000ms, 0808ms total)
T23C0 001:089 JLINK_WriteReg(R0, 0x0001C800)  returns 0x00 (0000ms, 0808ms total)
T23C0 001:089 JLINK_WriteReg(R1, 0x00000400)  returns 0x00 (0000ms, 0808ms total)
T23C0 001:089 JLINK_WriteReg(R2, 0x000000FF)  returns 0x00 (0000ms, 0808ms total)
T23C0 001:089 JLINK_WriteReg(R3, 0x00000000)  returns 0x00 (0000ms, 0808ms total)
T23C0 001:089 JLINK_WriteReg(R4, 0x00000000)  returns 0x00 (0000ms, 0808ms total)
T23C0 001:089 JLINK_WriteReg(R5, 0x00000000)  returns 0x00 (0000ms, 0808ms total)
T23C0 001:089 JLINK_WriteReg(R6, 0x00000000)  returns 0x00 (0000ms, 0808ms total)
T23C0 001:089 JLINK_WriteReg(R7, 0x00000000)  returns 0x00 (0000ms, 0808ms total)
T23C0 001:089 JLINK_WriteReg(R8, 0x00000000)  returns 0x00 (0000ms, 0808ms total)
T23C0 001:089 JLINK_WriteReg(R9, 0x20000474)  returns 0x00 (0000ms, 0808ms total)
T23C0 001:089 JLINK_WriteReg(R10, 0x00000000)  returns 0x00 (0000ms, 0808ms total)
T23C0 001:089 JLINK_WriteReg(R11, 0x00000000)  returns 0x00 (0000ms, 0808ms total)
T23C0 001:089 JLINK_WriteReg(R12, 0x00000000)  returns 0x00 (0000ms, 0808ms total)
T23C0 001:089 JLINK_WriteReg(R13 (SP), 0x20002000)  returns 0x00 (0000ms, 0808ms total)
T23C0 001:089 JLINK_WriteReg(R14, 0x20000001)  returns 0x00 (0000ms, 0808ms total)
T23C0 001:089 JLINK_WriteReg(R15 (PC), 0x20000104)  returns 0x00 (0000ms, 0808ms total)
T23C0 001:089 JLINK_WriteReg(XPSR, 0x01000000)  returns 0x00 (0000ms, 0808ms total)
T23C0 001:089 JLINK_WriteReg(MSP, 0x20002000)  returns 0x00 (0000ms, 0808ms total)
T23C0 001:089 JLINK_WriteReg(PSP, 0x20002000)  returns 0x00 (0000ms, 0808ms total)
T23C0 001:089 JLINK_WriteReg(CFBP, 0x00000000)  returns 0x00 (0000ms, 0808ms total)
T23C0 001:089 JLINK_SetBPEx(Addr = 0x20000000, Type = 0xFFFFFFF2)  returns 0x0000000F (0000ms, 0808ms total)
T23C0 001:089 JLINK_Go() -- CPU_ReadMem(4 bytes @ 0xE0001000) -- CPU_WriteMem(4 bytes @ 0xE0001000) (0004ms, 0812ms total)
T23C0 001:093 JLINK_IsHalted()  returns FALSE (0001ms, 0813ms total)
T23C0 001:095 JLINK_IsHalted()  returns FALSE (0001ms, 0813ms total)
T23C0 001:097 JLINK_IsHalted()  returns FALSE (0001ms, 0813ms total)
T23C0 001:099 JLINK_IsHalted()  returns FALSE (0001ms, 0813ms total)
T23C0 001:101 JLINK_IsHalted()  returns FALSE (0001ms, 0813ms total)
T23C0 001:103 JLINK_IsHalted()  returns FALSE (0001ms, 0813ms total)
T23C0 001:105 JLINK_IsHalted()  returns FALSE (0001ms, 0813ms total)
T23C0 001:107 JLINK_IsHalted()  returns FALSE (0001ms, 0813ms total)
T23C0 001:109 JLINK_IsHalted()  returns FALSE (0001ms, 0813ms total)
T23C0 001:111 JLINK_IsHalted()  returns FALSE (0001ms, 0813ms total)
T23C0 001:113 JLINK_IsHalted()  returns FALSE (0001ms, 0813ms total)
T23C0 001:115 JLINK_IsHalted() -- CPU_ReadMem(2 bytes @ 0x20000000)  returns TRUE (0006ms, 0818ms total)
T23C0 001:121 JLINK_ReadReg(R15 (PC))  returns 0x20000000 (0000ms, 0812ms total)
T23C0 001:121 JLINK_ClrBPEx(BPHandle = 0x0000000F)  returns 0x00 (0000ms, 0812ms total)
T23C0 001:121 JLINK_ReadReg(R0)  returns 0x00000000 (0000ms, 0812ms total)
T23C0 001:121 JLINK_WriteReg(R0, 0x0001CC00)  returns 0x00 (0000ms, 0812ms total)
T23C0 001:121 JLINK_WriteReg(R1, 0x00000400)  returns 0x00 (0000ms, 0812ms total)
T23C0 001:121 JLINK_WriteReg(R2, 0x000000FF)  returns 0x00 (0000ms, 0812ms total)
T23C0 001:121 JLINK_WriteReg(R3, 0x00000000)  returns 0x00 (0000ms, 0812ms total)
T23C0 001:121 JLINK_WriteReg(R4, 0x00000000)  returns 0x00 (0000ms, 0812ms total)
T23C0 001:121 JLINK_WriteReg(R5, 0x00000000)  returns 0x00 (0000ms, 0812ms total)
T23C0 001:121 JLINK_WriteReg(R6, 0x00000000)  returns 0x00 (0000ms, 0812ms total)
T23C0 001:121 JLINK_WriteReg(R7, 0x00000000)  returns 0x00 (0000ms, 0812ms total)
T23C0 001:121 JLINK_WriteReg(R8, 0x00000000)  returns 0x00 (0000ms, 0812ms total)
